Title: ** sch_path: /home/designer/icdesign/sch//tp2/tp1_1.sch
Date: Fri May 13 01:12:40  2022
Plotname: DC transfer characteristic
Flags: real
No. Variables: 25
No. Points: 231
Variables:
	0	v(v-sweep)	voltage
	1	@m.xm1.msky130_fd_pr__nfet_01v8[gm]	admittance
	2	i(@m.xm1.msky130_fd_pr__nfet_01v8[id])	current
	3	v(@m.xm1.msky130_fd_pr__nfet_01v8[value])	voltage dims=0
	4	v(@m.xm1.msky130_fd_pr__nfet_01v8[vds])	voltage
	5	v(@m.xm1.msky130_fd_pr__nfet_01v8[vdsat])	voltage
	6	v(@m.xm1.msky130_fd_pr__nfet_01v8[vgs])	voltage
	7	v(@m.xm1.msky130_fd_pr__nfet_01v8[vth])	voltage
	8	@m.xm2.msky130_fd_pr__pfet_01v8[gm]	admittance
	9	i(@m.xm2.msky130_fd_pr__pfet_01v8[id])	current
	10	v(@m.xm2.msky130_fd_pr__pfet_01v8[vdsat])	voltage
	11	v(@m.xm2.msky130_fd_pr__pfet_01v8[vsd])	voltage dims=0
	12	v(@m.xm2.msky130_fd_pr__pfet_01v8[vsg])	voltage dims=0
	13	v(@m.xm2.msky130_fd_pr__pfet_01v8[vth])	voltage
	14	v(m.xm1.msky130_fd_pr__nfet_01v8#body)	voltage
	15	v(m.xm1.msky130_fd_pr__nfet_01v8#dbody)	voltage
	16	v(m.xm1.msky130_fd_pr__nfet_01v8#sbody)	voltage
	17	v(m.xm2.msky130_fd_pr__pfet_01v8#body)	voltage
	18	v(m.xm2.msky130_fd_pr__pfet_01v8#dbody)	voltage
	19	v(m.xm2.msky130_fd_pr__pfet_01v8#sbody)	voltage
	20	v(net1)	voltage
	21	v(net2)	voltage
	22	i(vdd)	current
	23	i(vgs)	current
	24	v(vout)	voltage
Values:
 0	0.000000000000000e+00
	4.015235709092415e-14
	1.265262149921686e-15
	0.000000000000000e+00
	1.799999995901859e+00
	3.633334468976088e-02
	-4.892346997814248e-16
	8.050096630708820e-01
	6.700207357702394e-13
	9.920183026149355e-13
	6.666820363115156e-01
	0.000000000000000e+00
	0.000000000000000e+00
	8.299569933064627e-01
	2.250003440948265e-11
	5.625004201448274e-11
	1.125001720446008e-11
	1.800000000000000e+00
	1.800000000000000e+00
	1.800000000000000e+00
	0.000000000000000e+00
	1.800000000000000e+00
	-1.803002191991254e-12
	0.000000000000000e+00
	1.799999995902556e+00

 1	1.000000000000000e-02
	5.514809141256083e-14
	1.737805442028066e-15
	0.000000000000000e+00
	1.799999992527020e+00
	3.633334469109158e-02
	9.999999999999355e-03
	8.050096630709321e-01
	1.244737758291141e-12
	1.797032948257289e-12
	6.608584387784818e-01
	0.000000000000000e+00
	0.000000000000000e+00
	8.299569928098015e-01
	2.250004135038262e-11
	5.625004540056173e-11
	1.125002067491006e-11
	1.800000000000000e+00
	1.800000000000000e+00
	1.800000000000000e+00
	1.000000000000000e-02
	1.800000000000000e+00
	-1.804778548830654e-12
	0.000000000000000e+00
	1.799999992527717e+00

 2	2.000000000000000e-02
	7.574419391727370e-14
	2.386829432639924e-15
	0.000000000000000e+00
	1.799999992450246e+00
	3.633334469291929e-02
	1.999999999999908e-02
	8.050096630709332e-01
	1.280397428199957e-12
	1.802810296922100e-12
	6.550395126992429e-01
	0.000000000000000e+00
	0.000000000000000e+00
	8.299569927985029e-01
	2.250005387203465e-11
	5.625005165946842e-11
	1.125002693573609e-11
	1.800000000000000e+00
	1.800000000000000e+00
	1.800000000000000e+00
	2.000000000000000e-02
	1.800000000000000e+00
	-1.803890370410954e-12
	0.000000000000000e+00
	1.799999992450944e+00

 3	3.000000000000000e-02
	1.040321411280292e-13
	3.278243053533396e-15
	0.000000000000000e+00
	1.799999992390527e+00
	3.633334469542961e-02
	2.999999999999873e-02
	8.050096630709341e-01
	1.313530814274281e-12
	1.804053990266032e-12
	6.492247626021233e-01
	0.000000000000000e+00
	0.000000000000000e+00
	8.299569927897146e-01
	2.250006937427290e-11
	5.625005940909456e-11
	1.125003468685522e-11
	1.800000000000000e+00
	1.800000000000000e+00
	1.800000000000000e+00
	3.000000000000000e-02
	1.800000000000000e+00
	-1.804778548830654e-12
	0.000000000000000e+00
	1.799999992391225e+00

 4	4.000000000000000e-02
	1.428844433520811e-13
	4.502569003232744e-15
	0.000000000000000e+00
	1.799999992333360e+00
	3.633334469887740e-02
	3.999999999999826e-02
	8.050096630709352e-01
	1.346518458079822e-12
	1.804260760871344e-12
	6.434136829462127e-01
	0.000000000000000e+00
	0.000000000000000e+00
	8.299569927813018e-01
	2.250009066637466e-11
	5.625007005371629e-11
	1.125004533290611e-11
	1.800000000000000e+00
	1.800000000000000e+00
	1.800000000000000e+00
	4.000000000000000e-02
	1.800000000000000e+00
	-1.804778548830654e-12
	0.000000000000000e+00
	1.799999992334059e+00

 5	5.000000000000000e-02
	1.962462896618265e-13
	6.184135324342176e-15
	0.000000000000000e+00
	1.799999992264397e+00
	3.633334470361281e-02
	4.999999999999761e-02
	8.050096630709364e-01
	1.381887749350471e-12
	1.806791416483143e-12
	6.376057584511120e-01
	0.000000000000000e+00
	0.000000000000000e+00
	8.299569927711535e-01
	2.250011991040678e-11
	5.625008467400829e-11
	1.125005995492219e-11
	1.800000000000000e+00
	1.800000000000000e+00
	1.800000000000000e+00
	5.000000000000000e-02
	1.800000000000000e+00
	-1.807443084089755e-12
	0.000000000000000e+00
	1.799999992265098e+00

 6	6.000000000000000e-02
	2.695360831250114e-13
	8.493699151210236e-15
	0.000000000000000e+00
	1.799999992197113e+00
	3.633334471011670e-02
	5.999999999999672e-02
	8.050096630709374e-01
	1.417283331950767e-12
	1.808454404880976e-12
	6.318004641916138e-01
	0.000000000000000e+00
	0.000000000000000e+00
	8.299569927612521e-01
	2.250016007625365e-11
	5.625010475524964e-11
	1.125008003784564e-11
	1.800000000000000e+00
	1.800000000000000e+00
	1.800000000000000e+00
	6.000000000000000e-02
	1.800000000000000e+00
	-1.808331262509455e-12
	0.000000000000000e+00
	1.799999992197816e+00

 7	7.000000000000001e-02
	3.701955140588819e-13
	1.166578403761571e-14
	0.000000000000000e+00
	1.799999992120575e+00
	3.633334471904950e-02
	6.999999999999550e-02
	8.050096630709388e-01
	1.454693843802677e-12
	1.811767361560359e-12
	6.259972657118043e-01
	0.000000000000000e+00
	0.000000000000000e+00
	8.299569927499895e-01
	2.250021524248571e-11
	5.625013233645226e-11
	1.125010762096171e-11
	1.800000000000000e+00
	1.800000000000000e+00
	1.800000000000000e+00
	7.000000000000001e-02
	1.800000000000000e+00
	-1.812772154607956e-12
	0.000000000000000e+00
	1.799999992121280e+00

 8	8.000000000000000e-02
	5.084449881195043e-13
	1.602249060238133e-14
	0.000000000000000e+00
	1.799999992038587e+00
	3.633334473131829e-02
	7.999999999999381e-02
	8.050096630709404e-01
	1.493473316401990e-12
	1.815806443216760e-12
	6.201956191458003e-01
	0.000000000000000e+00
	0.000000000000000e+00
	8.299569927379247e-01
	2.250029101095064e-11
	5.625017021863507e-11
	1.125014550519421e-11
	1.800000000000000e+00
	1.800000000000000e+00
	1.800000000000000e+00
	8.000000000000000e-02
	1.800000000000000e+00
	-1.815436689867056e-12
	0.000000000000000e+00
	1.799999992039296e+00

 9	9.000000000000000e-02
	6.983210527662916e-13
	2.200619704703250e-14
	0.000000000000000e+00
	1.799999991943194e+00
	3.633334474816884e-02
	8.999999999999149e-02
	8.050096630709421e-01
	1.535169542143044e-12
	1.822334074782724e-12
	6.143949713575844e-01
	0.000000000000000e+00
	0.000000000000000e+00
	8.299569927238879e-01
	2.250039507515193e-11
	5.625022224835094e-11
	1.125019753729491e-11
	1.800000000000000e+00
	1.800000000000000e+00
	1.800000000000000e+00
	9.000000000000000e-02
	1.800000000000000e+00
	-1.822542117224657e-12
	0.000000000000000e+00
	1.799999991943907e+00

 10	9.999999999999999e-02
	9.591010583923847e-13
	3.022446794562226e-14
	0.000000000000000e+00
	1.799999991837655e+00
	3.633334477131206e-02
	9.999999999998831e-02
	8.050096630709445e-01
	1.579252795105789e-12
	1.830535893463665e-12
	6.085947600914107e-01
	0.000000000000000e+00
	0.000000000000000e+00
	8.299569927083593e-01
	2.250053800156550e-11
	5.625029370891934e-11
	1.125026900050178e-11
	1.800000000000000e+00
	1.800000000000000e+00
	1.800000000000000e+00
	9.999999999999999e-02
	1.800000000000000e+00
	-1.831423901421658e-12
	0.000000000000000e+00
	1.799999991838375e+00

 11	1.100000000000000e-01
	1.317259543265936e-12
	4.151172801089188e-14
	0.000000000000000e+00
	1.799999991718054e+00
	3.633334480309770e-02
	1.099999999999839e-01
	8.050096630709469e-01
	1.626563238064152e-12
	1.841216923451158e-12
	6.027944141402508e-01
	0.000000000000000e+00
	0.000000000000000e+00
	8.299569926907611e-01
	2.250073430200660e-11
	5.625039185614995e-11
	1.125036715072243e-11
	1.800000000000000e+00
	1.800000000000000e+00
	1.800000000000000e+00
	1.100000000000000e-01
	1.800000000000000e+00
	-1.841193864038360e-12
	0.000000000000000e+00
	1.799999991718782e+00

 12	1.200000000000000e-01
	1.809154712458369e-12
	5.701395761149533e-14
	0.000000000000000e+00
	1.799999991570344e+00
	3.633334484675312e-02
	1.199999999999779e-01
	8.050096630709502e-01
	1.680002088420571e-12
	1.857380289220906e-12
	5.969933535282000e-01
	0.000000000000000e+00
	0.000000000000000e+00
	8.299569926690289e-01
	2.250100390657157e-11
	5.625052665473983e-11
	1.125050195300506e-11
	1.800000000000000e+00
	1.800000000000000e+00
	1.800000000000000e+00
	1.200000000000000e-01
	1.800000000000000e+00
	-1.858957432432362e-12
	0.000000000000000e+00
	1.799999991571084e+00

 13	1.300000000000000e-01
	2.484717336581832e-12
	7.830500084622589e-14
	0.000000000000000e+00
	1.799999991395217e+00
	3.633334490671009e-02
	1.299999999999697e-01
	8.050096630709545e-01
	1.739650877041196e-12
	1.878697355889983e-12
	5.911909897062227e-01
	0.000000000000000e+00
	0.000000000000000e+00
	8.299569926432626e-01
	2.250137418671594e-11
	5.625071179043405e-11
	1.125068709307745e-11
	1.800000000000000e+00
	1.800000000000000e+00
	1.800000000000000e+00
	1.300000000000000e-01
	1.800000000000000e+00
	-1.880273714505165e-12
	0.000000000000000e+00
	1.799999991395973e+00

 14	1.400000000000000e-01
	3.412515891050913e-12
	1.075462809557320e-13
	0.000000000000000e+00
	1.799999991178082e+00
	3.633334498905556e-02
	1.399999999999584e-01
	8.050096630709600e-01
	1.808711040836742e-12
	1.908145499323430e-12
	5.853867257681824e-01
	0.000000000000000e+00
	0.000000000000000e+00
	8.299569926113173e-01
	2.250188273256309e-11
	5.625096605792953e-11
	1.125094136600130e-11
	1.800000000000000e+00
	1.800000000000000e+00
	1.800000000000000e+00
	1.400000000000000e-01
	1.800000000000000e+00
	-1.908695423935569e-12
	0.000000000000000e+00
	1.799999991178861e+00

 15	1.500000000000000e-01
	4.686711030091721e-12
	1.477061158067636e-13
	0.000000000000000e+00
	1.799999990907015e+00
	3.633334510214844e-02
	1.499999999999429e-01
	8.050096630709669e-01
	1.889989815695406e-12
	1.948006276897740e-12
	5.795799566793431e-01
	0.000000000000000e+00
	0.000000000000000e+00
	8.299569925714378e-01
	2.250258116734493e-11
	5.625131526854415e-11
	1.125129058339260e-11
	1.800000000000000e+00
	1.800000000000000e+00
	1.800000000000000e+00
	1.500000000000000e-01
	1.800000000000000e+00
	-1.948663452822075e-12
	0.000000000000000e+00
	1.799999990907825e+00

 16	1.600000000000000e-01
	6.436603569783856e-12
	2.028608622313828e-13
	0.000000000000000e+00
	1.799999990556587e+00
	3.633334525746800e-02
	1.599999999999216e-01
	8.050096630709764e-01
	1.989264529396312e-12
	2.003319284688648e-12
	5.737700695243025e-01
	0.000000000000000e+00
	0.000000000000000e+00
	8.299569925198844e-01
	2.250354038453887e-11
	5.625179486838094e-11
	1.125177019199009e-11
	1.800000000000000e+00
	1.800000000000000e+00
	1.800000000000000e+00
	1.600000000000000e-01
	1.800000000000000e+00
	-2.003730514843483e-12
	0.000000000000000e+00
	1.799999990557440e+00

 17	1.700000000000000e-01
	8.839742266549370e-12
	2.786084014299163e-13
	0.000000000000000e+00
	1.799999990098641e+00
	3.633334547077829e-02
	1.699999999998923e-01
	8.050096630709889e-01
	2.113165637025904e-12
	2.079472688699236e-12
	5.679564437698174e-01
	0.000000000000000e+00
	0.000000000000000e+00
	8.299569924525146e-01
	2.250485773911621e-11
	5.625245353422167e-11
	1.125242886927947e-11
	1.800000000000000e+00
	1.800000000000000e+00
	1.800000000000000e+00
	1.700000000000000e-01
	1.800000000000000e+00
	-2.079225680517993e-12
	0.000000000000000e+00
	1.799999990099552e+00

 18	1.800000000000000e-01
	1.213991714535589e-11
	3.826358434117599e-13
	0.000000000000000e+00
	1.799999989496813e+00
	3.633334576372676e-02
	1.799999999998521e-01
	8.050096630710053e-01
	2.270389815588298e-12
	2.183305981382808e-12
	5.621384515464170e-01
	0.000000000000000e+00
	0.000000000000000e+00
	8.299569923639792e-01
	2.250666692068080e-11
	5.625335810995926e-11
	1.125333346006276e-11
	1.800000000000000e+00
	1.800000000000000e+00
	1.800000000000000e+00
	1.800000000000000e-01
	1.800000000000000e+00
	-2.184030734042608e-12
	0.000000000000000e+00
	1.799999989497805e+00

 19	1.900000000000000e-01
	1.667185699119660e-11
	5.254989209281352e-13
	0.000000000000000e+00
	1.799999988687549e+00
	3.633334616603897e-02
	1.899999999997968e-01
	8.050096630710281e-01
	2.475956251332141e-12
	2.326918570868384e-12
	5.563154579490235e-01
	0.000000000000000e+00
	0.000000000000000e+00
	8.299569922449288e-01
	2.250915150802535e-11
	5.625460038340128e-11
	1.125457575373638e-11
	1.800000000000000e+00
	1.800000000000000e+00
	1.800000000000000e+00
	1.900000000000000e-01
	1.800000000000000e+00
	-2.327027459614328e-12
	0.000000000000000e+00
	1.799999988688652e+00

 20	2.000000000000000e-01
	2.289512516429370e-11
	7.216919301381298e-13
	0.000000000000000e+00
	1.799999987605071e+00
	3.633334671853201e-02
	1.999999999997210e-01
	8.050096630710588e-01
	2.746023402707226e-12
	2.522279119545958e-12
	5.504868213522992e-01
	0.000000000000000e+00
	0.000000000000000e+00
	8.299569920856876e-01
	2.251256357726678e-11
	5.625630639096190e-11
	1.125628178835895e-11
	1.800000000000000e+00
	1.800000000000000e+00
	1.800000000000000e+00
	2.000000000000000e-01
	1.800000000000000e+00
	-2.523314890368056e-12
	0.000000000000000e+00
	1.799999987606326e+00

 21	2.100000000000000e-01
	3.144063351794750e-11
	9.911164024844998e-13
	0.000000000000000e+00
	1.799999986132099e+00
	3.633334747724987e-02
	2.099999999996168e-01
	8.050096630711007e-01
	3.108942877215041e-12
	2.791104285883856e-12
	5.446518937509256e-01
	0.000000000000000e+00
	0.000000000000000e+00
	8.299569918690020e-01
	2.251724924356111e-11
	5.625864918728732e-11
	1.125862462150866e-11
	1.800000000000000e+00
	1.800000000000000e+00
	1.800000000000000e+00
	2.100000000000000e-01
	1.800000000000000e+00
	-2.791544773117494e-12
	0.000000000000000e+00
	1.799999986133562e+00

 22	2.200000000000001e-01
	4.317446194260996e-11
	1.361096897334390e-12
	0.000000000000000e+00
	1.799999984107086e+00
	3.633334851914036e-02
	2.199999999994738e-01
	8.050096630711582e-01
	3.604259605942005e-12
	3.162820455671550e-12
	5.388100211145532e-01
	0.000000000000000e+00
	0.000000000000000e+00
	8.299569915711070e-01
	2.252368371874094e-11
	5.626186637425541e-11
	1.126184185910207e-11
	1.800000000000000e+00
	1.800000000000000e+00
	1.800000000000000e+00
	2.200000000000001e-01
	1.800000000000000e+00
	-3.163691530971846e-12
	0.000000000000000e+00
	1.799999984108835e+00

 23	2.300000000000001e-01
	5.928540652988709e-11
	1.869147404466764e-12
	0.000000000000000e+00
	1.799999981341028e+00
	3.633334994984546e-02
	2.299999999992773e-01
	8.050096630712369e-01
	4.279373479997404e-12
	3.670722478410601e-12
	5.329605437617746e-01
	0.000000000000000e+00
	0.000000000000000e+00
	8.299569911641995e-01
	2.253251942325050e-11
	5.626628415736353e-11
	1.126625971136165e-11
	1.800000000000000e+00
	1.800000000000000e+00
	1.800000000000000e+00
	2.300000000000001e-01
	1.800000000000000e+00
	-3.671729587040318e-12
	0.000000000000000e+00
	1.799999981343170e+00

 24	2.400000000000001e-01
	8.140505374774473e-11
	2.566767328505398e-12
	0.000000000000000e+00
	1.799999977525942e+00
	3.633335191439114e-02
	2.399999999990076e-01
	8.050096630713452e-01
	5.211037055915803e-12
	4.369412859094464e-12
	5.271027967637216e-01
	0.000000000000000e+00
	0.000000000000000e+00
	8.299569906029715e-01
	2.254465200259628e-11
	5.627235035166586e-11
	1.127232600104113e-11
	1.800000000000000e+00
	1.800000000000000e+00
	1.800000000000000e+00
	2.400000000000001e-01
	1.800000000000000e+00
	-4.370726003344316e-12
	0.000000000000000e+00
	1.799999977528624e+00

 25	2.500000000000001e-01
	1.117724244189952e-10
	3.524649389876353e-12
	0.000000000000000e+00
	1.799999972271495e+00
	3.633335461185286e-02
	2.499999999986372e-01
	8.050096630714946e-01
	6.498157947348507e-12
	5.326332953789087e-12
	5.212361103581160e-01
	0.000000000000000e+00
	0.000000000000000e+00
	8.299569898300007e-01
	2.256131090060767e-11
	5.628067966931944e-11
	1.128065545005588e-11
	1.800000000000000e+00
	1.800000000000000e+00
	1.800000000000000e+00
	2.500000000000001e-01
	1.800000000000000e+00
	-5.326405982941651e-12
	0.000000000000000e+00
	1.799999972274918e+00

 26	2.600000000000001e-01
	1.534596663603616e-10
	4.839823239524768e-12
	0.000000000000000e+00
	1.799999964982977e+00
	3.633335831547265e-02
	2.599999999981287e-01
	8.050096630717004e-01
	8.291552360454575e-12
	6.643874454737201e-12
	5.153598103987661e-01
	0.000000000000000e+00
	0.000000000000000e+00
	8.299569887577991e-01
	2.258418359538603e-11
	5.629211583450810e-11
	1.129209179745749e-11
	1.800000000000000e+00
	1.800000000000000e+00
	1.800000000000000e+00
	2.600000000000001e-01
	1.800000000000000e+00
	-6.643574579356937e-12
	0.000000000000000e+00
	1.799999964987418e+00

 27	2.700000000000001e-01
	2.106813279895276e-10
	6.645452077088338e-12
	0.000000000000000e+00
	1.799999954894050e+00
	3.633336340024726e-02
	2.699999999974305e-01
	8.050096630719846e-01
	1.078836280890385e-11
	8.450721552008425e-12
	5.094732188149106e-01
	0.000000000000000e+00
	0.000000000000000e+00
	8.299569872736285e-01
	2.261558597647811e-11
	5.630781677284801e-11
	1.130779298802059e-11
	1.800000000000000e+00
	1.800000000000000e+00
	1.800000000000000e+00
	2.700000000000001e-01
	1.800000000000000e+00
	-8.451905841866392e-12
	0.000000000000000e+00
	1.799999954899886e+00

 28	2.800000000000001e-01
	2.892179983790143e-10
	9.124264024666176e-12
	0.000000000000000e+00
	1.799999940898095e+00
	3.633337038075139e-02
	2.799999999964720e-01
	8.050096630723766e-01
	1.427450498927163e-11
	1.093084753702061e-11
	5.035756541117824e-01
	0.000000000000000e+00
	0.000000000000000e+00
	8.299569852146909e-01
	2.265869593250431e-11
	5.632937140098567e-11
	1.132934796605711e-11
	1.800000000000000e+00
	1.800000000000000e+00
	1.800000000000000e+00
	2.800000000000001e-01
	1.800000000000000e+00
	-1.093081181124944e-11
	0.000000000000000e+00
	1.799999940905850e+00

 29	2.900000000000001e-01
	3.969963372201915e-10
	1.252696117390437e-11
	0.000000000000000e+00
	1.799999921457390e+00
	3.633337996297903e-02
	2.899999999951564e-01
	8.050096630729180e-01
	1.915032186958894e-11
	1.433579718822128e-11
	4.976664318899661e-01
	0.000000000000000e+00
	0.000000000000000e+00
	8.299569823547663e-01
	2.271787350749675e-11
	5.635895970249641e-11
	1.135893675358549e-11
	1.800000000000000e+00
	1.800000000000000e+00
	1.800000000000000e+00
	2.900000000000001e-01
	1.800000000000000e+00
	-1.433519969396002e-11
	0.000000000000000e+00
	1.799999921467777e+00

 30	3.000000000000001e-01
	5.448827969411737e-10
	1.719744195536535e-11
	0.000000000000000e+00
	1.799999894433687e+00
	3.633339311537117e-02
	2.999999999933504e-01
	8.050096630736669e-01
	2.597652208733105e-11
	1.900967752513025e-11
	4.917448653983947e-01
	0.000000000000000e+00
	0.000000000000000e+00
	8.299569783792869e-01
	2.279909954739808e-11
	5.639957204689863e-11
	1.139954977358029e-11
	1.800000000000000e+00
	1.800000000000000e+00
	1.800000000000000e+00
	3.000000000000001e-01
	1.800000000000000e+00
	-1.901057089526148e-11
	0.000000000000000e+00
	1.799999894447687e+00

 31	3.100000000000001e-01
	7.477690747029478e-10
	2.360734392421789e-11
	0.000000000000000e+00
	1.799999856848459e+00
	3.633341116609017e-02
	3.099999999908719e-01
	8.050096630747013e-01
	3.553945154133667e-11
	2.542399847916883e-11
	4.858102661221950e-01
	0.000000000000000e+00
	0.000000000000000e+00
	8.299569728500660e-01
	2.291057643662376e-11
	5.645530955194136e-11
	1.145528821825370e-11
	1.800000000000000e+00
	1.800000000000000e+00
	1.800000000000000e+00
	3.100000000000001e-01
	1.800000000000000e+00
	-2.542499544233578e-11
	0.000000000000000e+00
	1.799999856867418e+00

 32	3.200000000000001e-01
	1.026055413327353e-09
	3.240332777498896e-11
	0.000000000000000e+00
	1.799999804547089e+00
